
T2410 000:066 SEGGER J-Link V6.10i Log File (0001ms, 0045ms total)
T2410 000:066 DLL Compiled: Oct 25 2016 19:31:51 (0001ms, 0045ms total)
T2410 000:066 Logging started @ 2017-05-05 16:39 (0001ms, 0045ms total)
T2410 000:067 JLINK_SetWarnOutHandler(...) (0000ms, 0045ms total)
T2410 000:067 JLINK_OpenEx(...)
Firmware: J-Link ARM-OB STM32 compiled Aug 22 2012 19:52:04
Hardware: V7.00
S/N: 20090928
Feature(s): RDI,FlashDL,FlashBP,JFlash,GDBFullWEBSRV Webserver running on local port 19080 (0040ms, 0085ms total)
T2410 000:067   returns O.K. (0040ms, 0085ms total)
T2410 000:107 JLINK_SetErrorOutHandler(...) (0000ms, 0085ms total)
T2410 000:107 JLINK_ExecCommand("ProjectFile = "C:\Users\Administrator\Desktop\Onboard-SDK-3.2\Onboard-SDK-3.2\sample\STM32\OnBoardSDK_STM32\Project\JLinkSettings.ini"", ...).   returns 0x00 (0196ms, 0281ms total)
T2410 000:303 JLINK_ExecCommand("Device = STM32F407VGTx", ...). Device "STM32F407VG" selected.  returns 0x00 (0002ms, 0283ms total)
T2410 000:305 JLINK_ExecCommand("DisableConnectionTimeout", ...).   returns 0x01 (0000ms, 0283ms total)
T2410 000:305 JLINK_GetHardwareVersion()  returns 0x11170 (0000ms, 0283ms total)
T2410 000:305 JLINK_GetDLLVersion()  returns 61009 (0000ms, 0283ms total)
T2410 000:305 JLINK_GetFirmwareString(...) (0000ms, 0283ms total)
T2410 000:305 JLINK_GetDLLVersion()  returns 61009 (0000ms, 0283ms total)
T2410 000:305 JLINK_GetCompileDateTime() (0000ms, 0283ms total)
T2410 000:305 JLINK_GetFirmwareString(...) (0000ms, 0283ms total)
T2410 000:305 JLINK_GetHardwareVersion()  returns 0x11170 (0000ms, 0283ms total)
T2410 000:305 JLINK_TIF_Select(JLINKARM_TIF_SWD)  returns 0x00 (0001ms, 0284ms total)
T2410 000:306 JLINK_SetSpeed(5000) (0000ms, 0284ms total)
T2410 000:306 JLINK_GetId() >0x108 TIF>Found SWD-DP with ID 0x2BA01477 >0x0D TIF> >0x28 TIF> >0x0D TIF> >0x28 TIF> >0x0D TIF> >0x28 TIF> >0x0D TIF> >0x28 TIF> >0x0D TIF> >0x21 TIF> >0x0D TIF> >0x28 TIF> >0x0D TIF> >0x28 TIF> >0x0D TIF> >0x28 TIF> >0x0D TIF> >0x21 TIF> >0x0D TIF> >0x21 TIF> >0x0D TIF> >0x28 TIF> >0x0D TIF> >0x21 TIF> >0x0D TIF> >0x21 TIF> >0x0D TIF> >0x28 TIF> >0x0D TIF> >0x21 TIF> >0x0D TIF> >0x21 TIF> >0x0D TIF> >0x28 TIF> >0x0D TIF> >0x21 TIF> >0x0D TIF> >0x21 TIF> >0x0D TIF>
 >0x28 TIF> >0x0D TIF> >0x21 TIF> >0x0D TIF> >0x21 TIF> >0x0D TIF> >0x28 TIF> >0x0D TIF> >0x21 TIF> >0x0D TIF> >0x21 TIF> >0x108 TIF>Found SWD-DP with ID 0x2BA01477 >0x0D TIF> >0x28 TIF> >0x0D TIF> >0x28 TIF> >0x0D TIF> >0x28 TIF> >0x0D TIF> >0x28 TIF> >0x0D TIF> >0x21 TIF> >0x0D TIF> >0x28 TIF> >0x0D TIF> >0x28 TIF> >0x0D TIF> >0x21 TIF> >0x0D TIF> >0x21 TIF> >0x0D TIF> >0x21 TIF>AP-IDR: 0x24770011, Type: AHB-AP >0x0D TIF> >0x28 TIF> >0x0D TIF> >0x28 TIF> >0x0D TIF> >0x28 TIF> >0x0D TIF> >0x21 TIF>
 >0x0D TIF> >0x21 TIF> >0x0D TIF> >0x28 TIF> >0x0D TIF> >0x21 TIF> >0x0D TIF> >0x21 TIF>Found Cortex-M4 r0p1, Little endian. -- CPU_ReadMem(4 bytes @ 0xE000EDF0) -- CPU_WriteMem(4 bytes @ 0xE000EDF0) -- CPU_ReadMem(4 bytes @ 0xE0002000)FPUnit: 6 code (BP) slots and 2 literal slots -- CPU_ReadMem(4 bytes @ 0xE000EDFC) -- CPU_WriteMem(4 bytes @ 0xE000EDFC) -- CPU_ReadMem(4 bytes @ 0xE0001000) -- CPU_WriteMem(4 bytes @ 0xE0001000) -- CPU_ReadMem(4 bytes @ 0xE000ED88) -- CPU_WriteMem(4 bytes @ 0xE000ED88)
 -- CPU_ReadMem(4 bytes @ 0xE000ED88) -- CPU_WriteMem(4 bytes @ 0xE000ED88)CoreSight components:ROMTbl 0 @ E00FF000 -- CPU_ReadMem(16 bytes @ 0xE00FF000) -- CPU_ReadMem(16 bytes @ 0xE000EFF0) -- CPU_ReadMem(16 bytes @ 0xE000EFE0)ROMTbl 0 [0]: FFF0F000, CID: B105E00D, PID: 000BB00C SCS -- CPU_ReadMem(16 bytes @ 0xE0001FF0) -- CPU_ReadMem(16 bytes @ 0xE0001FE0)ROMTbl 0 [1]: FFF02000, CID: B105E00D, PID: 003BB002 DWT -- CPU_ReadMem(16 bytes @ 0xE0002FF0) -- CPU_ReadMem(16 bytes @ 0xE0002FE0)
ROMTbl 0 [2]: FFF03000, CID: B105E00D, PID: 002BB003 FPB -- CPU_ReadMem(16 bytes @ 0xE0000FF0) -- CPU_ReadMem(16 bytes @ 0xE0000FE0)ROMTbl 0 [3]: FFF01000, CID: B105E00D, PID: 003BB001 ITM -- CPU_ReadMem(16 bytes @ 0xE00FF010) -- CPU_ReadMem(16 bytes @ 0xE0040FF0) -- CPU_ReadMem(16 bytes @ 0xE0040FE0)ROMTbl 0 [4]: FFF41000, CID: B105900D, PID: 000BB9A1 TPIU -- CPU_ReadMem(16 bytes @ 0xE0041FF0) -- CPU_ReadMem(16 bytes @ 0xE0041FE0)ROMTbl 0 [5]: FFF42000, CID: B105900D, PID: 000BB925 ETM >0x0D TIF>
 >0x21 TIF>  returns 0x2BA01477 (0035ms, 0319ms total)
T2410 000:341 JLINK_GetDLLVersion()  returns 61009 (0000ms, 0319ms total)
T2410 000:341 JLINK_CORE_GetFound()  returns 0xE0000FF (0000ms, 0319ms total)
T2410 000:341 JLINK_GetDebugInfo(0x100) -- Value=0xE00FF000  returns 0x00 (0000ms, 0319ms total)
T2410 000:341 JLINK_GetDebugInfo(0x100) -- Value=0xE00FF000  returns 0x00 (0000ms, 0319ms total)
T2410 000:341 JLINK_GetDebugInfo(0x101) -- Value=0xE0041000  returns 0x00 (0000ms, 0319ms total)
T2410 000:341 JLINK_GetDebugInfo(0x102) -- Value=0x00000000  returns 0x00 (0000ms, 0319ms total)
T2410 000:341 JLINK_GetDebugInfo(0x103) -- Value=0xE0040000  returns 0x00 (0000ms, 0319ms total)
T2410 000:341 JLINK_GetDebugInfo(0x104) -- Value=0xE0000000  returns 0x00 (0000ms, 0319ms total)
T2410 000:341 JLINK_GetDebugInfo(0x105) -- Value=0xE0001000  returns 0x00 (0000ms, 0319ms total)
T2410 000:341 JLINK_GetDebugInfo(0x106) -- Value=0xE0002000  returns 0x00 (0000ms, 0319ms total)
T2410 000:341 JLINK_GetDebugInfo(0x107) -- Value=0xE000E000  returns 0x00 (0000ms, 0319ms total)
T2410 000:341 JLINK_GetDebugInfo(0x10C) -- Value=0xE000EDF0  returns 0x00 (0000ms, 0319ms total)
T2410 000:341 JLINK_ReadMemU32(0xE000EF40, 0x0001 Items, ...) -- CPU is running -- CPU_ReadMem(4 bytes @ 0xE000EF40) - Data: 21 00 11 10  returns 0x01 (0001ms, 0320ms total)
T2410 000:342 JLINK_ReadMemU32(0xE000EF44, 0x0001 Items, ...) -- CPU is running -- CPU_ReadMem(4 bytes @ 0xE000EF44) - Data: 11 00 00 11  returns 0x01 (0000ms, 0320ms total)
T2410 000:342 JLINK_ReadMemU32(0xE000ED00, 0x0001 Items, ...) -- CPU is running -- CPU_ReadMem(4 bytes @ 0xE000ED00) - Data: 41 C2 0F 41  returns 0x01 (0001ms, 0321ms total)
T2410 000:343 JLINK_SetResetType(JLINKARM_RESET_TYPE_NORMAL)  returns JLINKARM_RESET_TYPE_NORMAL (0000ms, 0321ms total)
T2410 000:343 JLINK_Reset() -- CPU is running -- CPU_WriteMem(4 bytes @ 0xE000EDF0) -- CPU is running -- CPU_WriteMem(4 bytes @ 0xE000EDFC) >0x35 TIF> -- CPU is running -- CPU_WriteMem(4 bytes @ 0xE000ED0C) -- CPU is running -- CPU_ReadMem(4 bytes @ 0xE000EDF0) -- CPU is running -- CPU_ReadMem(4 bytes @ 0xE000EDF0) -- CPU is running -- CPU_WriteMem(4 bytes @ 0xE000EDF0) -- CPU is running -- CPU_WriteMem(4 bytes @ 0xE000EDFC) -- CPU is running -- CPU_ReadMem(4 bytes @ 0xE000EDF0)
 -- CPU_WriteMem(4 bytes @ 0xE0002000) -- CPU_ReadMem(4 bytes @ 0xE000EDFC) -- CPU_ReadMem(4 bytes @ 0xE0001000) (0019ms, 0340ms total)
T2410 000:362 JLINK_ReadReg(R15 (PC))  returns 0x08002F7C (0000ms, 0340ms total)
T2410 000:362 JLINK_ReadReg(XPSR)  returns 0x01000000 (0000ms, 0340ms total)
T2410 000:362 JLINK_Halt()  returns 0x00 (0000ms, 0340ms total)
T2410 000:362 JLINK_IsHalted()  returns TRUE (0000ms, 0340ms total)
T2410 000:362 JLINK_ReadMemU32(0xE000EDF0, 0x0001 Items, ...) -- CPU_ReadMem(4 bytes @ 0xE000EDF0) - Data: 03 00 03 00  returns 0x01 (0000ms, 0340ms total)
T2410 000:362 JLINK_WriteU32(0xE000EDF0, 0xA05F0003) -- CPU_WriteMem(4 bytes @ 0xE000EDF0)  returns 0x00 (0001ms, 0341ms total)
T2410 000:363 JLINK_WriteU32(0xE000EDFC, 0x01000000) -- CPU_WriteMem(4 bytes @ 0xE000EDFC)  returns 0x00 (0001ms, 0342ms total)
T2410 000:364 JLINK_GetHWStatus(...)  returns 0x00 (0000ms, 0342ms total)
T2410 000:364 JLINK_GetNumBPUnits(Type = 0xFFFFFF00)  returns 0x06 (0000ms, 0342ms total)
T2410 000:364 JLINK_GetNumBPUnits(Type = 0xF0)  returns 0x2000 (0000ms, 0342ms total)
T2410 000:364 JLINK_GetNumWPUnits()  returns 0x04 (0000ms, 0342ms total)
T2410 000:364 JLINK_GetSpeed()  returns 0xFA0 (0000ms, 0342ms total)
T2410 000:364 JLINK_ReadMemU32(0xE000E004, 0x0001 Items, ...) -- CPU_ReadMem(4 bytes @ 0xE000E004) - Data: 02 00 00 00  returns 0x01 (0001ms, 0343ms total)
T2410 000:365 JLINK_ReadMemU32(0xE000E004, 0x0001 Items, ...) -- CPU_ReadMem(4 bytes @ 0xE000E004) - Data: 02 00 00 00  returns 0x01 (0000ms, 0343ms total)
T2410 000:365 JLINK_WriteMem(0xE0001000, 0x001C Bytes, ...) - Data: 01 00 00 00 00 00 00 00 00 00 00 00 00 00 00 00 ... -- CPU_WriteMem(28 bytes @ 0xE0001000)  returns 0x1C (0002ms, 0345ms total)
T2410 000:367 JLINK_ReadMem (0xE0001000, 0x001C Bytes, ...) -- CPU_ReadMem(28 bytes @ 0xE0001000) - Data: 01 00 00 40 00 00 00 00 00 00 00 00 00 00 00 00 ...  returns 0x00 (0001ms, 0346ms total)
T2410 000:368 JLINK_ReadReg(R15 (PC))  returns 0x08002F7C (0000ms, 0346ms total)
T2410 000:368 JLINK_ReadReg(XPSR)  returns 0x01000000 (0000ms, 0346ms total)
T2410 000:695 JLINK_SetResetType(JLINKARM_RESET_TYPE_NORMAL)  returns JLINKARM_RESET_TYPE_NORMAL (0000ms, 0346ms total)
T2410 000:695 JLINK_Reset() -- CPU_WriteMem(4 bytes @ 0xE000EDF0) -- CPU_WriteMem(4 bytes @ 0xE000EDFC) >0x35 TIF> -- CPU_WriteMem(4 bytes @ 0xE000ED0C) -- CPU_ReadMem(4 bytes @ 0xE000EDF0) -- CPU_ReadMem(4 bytes @ 0xE000EDF0) -- CPU_WriteMem(4 bytes @ 0xE000EDF0) -- CPU_WriteMem(4 bytes @ 0xE000EDFC) -- CPU is running -- CPU_ReadMem(4 bytes @ 0xE000EDF0) -- CPU_WriteMem(4 bytes @ 0xE0002000) -- CPU_ReadMem(4 bytes @ 0xE000EDFC) -- CPU_ReadMem(4 bytes @ 0xE0001000) (0021ms, 0367ms total)
T2410 000:716 JLINK_ReadReg(R15 (PC))  returns 0x08002F7C (0000ms, 0367ms total)
T2410 000:716 JLINK_ReadReg(XPSR)  returns 0x01000000 (0000ms, 0367ms total)
T2410 000:717 JLINK_ReadMem (0x08002E7C, 0x003C Bytes, ...) -- CPU_ReadMem(128 bytes @ 0x08002E40) -- Updating C cache (128 bytes @ 0x08002E40) -- Read from C cache (60 bytes @ 0x08002E7C) - Data: 08 1F 00 68 20 F4 80 20 09 1F 08 60 00 20 31 49 ...  returns 0x00 (0002ms, 0369ms total)
T2410 000:719 JLINK_ReadMem (0x08002EB8, 0x003C Bytes, ...) -- CPU_ReadMem(64 bytes @ 0x08002EC0) -- Updating C cache (64 bytes @ 0x08002EC0) -- Read from C cache (60 bytes @ 0x08002EB8) - Data: 04 28 06 D0 08 28 34 D1 07 E0 2A 4D 2A 4E 35 60 ...  returns 0x00 (0002ms, 0371ms total)
T2410 000:721 JLINK_ReadMem (0x08002EF4, 0x003C Bytes, ...) -- CPU_ReadMem(64 bytes @ 0x08002F00) -- Updating C cache (64 bytes @ 0x08002F00) -- Read from C cache (60 bytes @ 0x08002EF4) - Data: C6 F3 88 16 05 FB 06 F2 09 E0 1B 4D B5 FB F1 F5 ...  returns 0x00 (0001ms, 0372ms total)
T2410 000:722 JLINK_ReadMem (0x08002F30, 0x003C Bytes, ...) -- CPU_ReadMem(64 bytes @ 0x08002F40) -- Updating C cache (64 bytes @ 0x08002F40) -- Read from C cache (60 bytes @ 0x08002F30) - Data: 00 BF 00 BF 06 4D 08 35 2D 68 C5 F3 03 15 0E 4E ...  returns 0x00 (0002ms, 0374ms total)
T2410 000:724 JLINK_ReadMem (0x08002F7A, 0x0002 Bytes, ...) -- Read from C cache (2 bytes @ 0x08002F7A) - Data: 00 20  returns 0x00 (0000ms, 0374ms total)
T2410 000:724 JLINK_ReadMem (0x08002F7C, 0x003C Bytes, ...) -- CPU_ReadMem(64 bytes @ 0x08002F80) -- Updating C cache (64 bytes @ 0x08002F80) -- Read from C cache (60 bytes @ 0x08002F7C) - Data: 06 48 80 47 06 48 00 47 FE E7 FE E7 FE E7 FE E7 ...  returns 0x00 (0001ms, 0375ms total)
T2410 004:569 JLINK_ReadMem (0x20001E88, 0x0002 Bytes, ...) -- CPU_ReadMem(64 bytes @ 0x20001E80) -- Updating C cache (64 bytes @ 0x20001E80) -- Read from C cache (2 bytes @ 0x20001E88) - Data: C0 E0  returns 0x00 (0001ms, 0376ms total)
T2CB4 005:256 JLINK_SetBPEx(Addr = 0x080003CE, Type = 0xFFFFFFF2)  returns 0x00000001 (0000ms, 0376ms total)
T2CB4 005:256 JLINK_SetBPEx(Addr = 0x08000466, Type = 0xFFFFFFF2)  returns 0x00000002 (0000ms, 0376ms total)
T2CB4 005:256 JLINK_Go() -- CPU_WriteMem(4 bytes @ 0xE0002000) -- CPU_WriteMem(4 bytes @ 0xE0002000) -- CPU_ReadMem(4 bytes @ 0xE0001000) -- CPU_WriteMem(4 bytes @ 0xE0002008) -- CPU_WriteMem(4 bytes @ 0xE000200C) -- CPU_WriteMem(4 bytes @ 0xE0002010) -- CPU_WriteMem(4 bytes @ 0xE0002014) -- CPU_WriteMem(4 bytes @ 0xE0002018) -- CPU_WriteMem(4 bytes @ 0xE000201C) -- CPU_WriteMem(4 bytes @ 0xE0001004) (0007ms, 0383ms total)
T2CB4 005:364 JLINK_IsHalted()  returns TRUE (0003ms, 0386ms total)
T2CB4 005:367 JLINK_Halt()  returns 0x00 (0000ms, 0383ms total)
T2CB4 005:367 JLINK_IsHalted()  returns TRUE (0000ms, 0383ms total)
T2CB4 005:367 JLINK_IsHalted()  returns TRUE (0000ms, 0383ms total)
T2CB4 005:367 JLINK_IsHalted()  returns TRUE (0000ms, 0383ms total)
T2CB4 005:367 JLINK_ReadReg(R15 (PC))  returns 0x080003CE (0000ms, 0383ms total)
T2CB4 005:367 JLINK_ReadReg(XPSR)  returns 0x61000000 (0001ms, 0384ms total)
T2CB4 005:368 JLINK_ClrBPEx(BPHandle = 0x00000001)  returns 0x00 (0000ms, 0384ms total)
T2CB4 005:368 JLINK_ClrBPEx(BPHandle = 0x00000002)  returns 0x00 (0000ms, 0384ms total)
T2CB4 005:368 JLINK_ReadMemU32(0xE000ED30, 0x0001 Items, ...) -- CPU_ReadMem(4 bytes @ 0xE000ED30) - Data: 03 00 00 00  returns 0x01 (0000ms, 0384ms total)
T2CB4 005:368 JLINK_ReadMemU32(0xE0001028, 0x0001 Items, ...) -- CPU_ReadMem(4 bytes @ 0xE0001028) - Data: 00 00 00 00  returns 0x01 (0001ms, 0385ms total)
T2CB4 005:369 JLINK_ReadMemU32(0xE0001038, 0x0001 Items, ...) -- CPU_ReadMem(4 bytes @ 0xE0001038) - Data: 00 02 00 00  returns 0x01 (0001ms, 0386ms total)
T2CB4 005:370 JLINK_ReadMemU32(0xE0001048, 0x0001 Items, ...) -- CPU_ReadMem(4 bytes @ 0xE0001048) - Data: 00 00 00 00  returns 0x01 (0000ms, 0386ms total)
T2CB4 005:371 JLINK_ReadMemU32(0xE0001058, 0x0001 Items, ...) -- CPU_ReadMem(4 bytes @ 0xE0001058) - Data: 00 00 00 00  returns 0x01 (0000ms, 0386ms total)
T2CB4 005:371 JLINK_ReadReg(R0)  returns 0x080003CF (0000ms, 0386ms total)
T2CB4 005:371 JLINK_ReadReg(R1)  returns 0x00000000 (0001ms, 0387ms total)
T2CB4 005:372 JLINK_ReadReg(R2)  returns 0x00000000 (0000ms, 0387ms total)
T2CB4 005:372 JLINK_ReadReg(R3)  returns 0x00000000 (0000ms, 0387ms total)
T2CB4 005:372 JLINK_ReadReg(R4)  returns 0x0800E45C (0000ms, 0387ms total)
T2CB4 005:372 JLINK_ReadReg(R5)  returns 0x0800E45C (0000ms, 0387ms total)
T2CB4 005:372 JLINK_ReadReg(R6)  returns 0x00000000 (0000ms, 0387ms total)
T2CB4 005:372 JLINK_ReadReg(R7)  returns 0x00000000 (0000ms, 0387ms total)
T2CB4 005:372 JLINK_ReadReg(R8)  returns 0x00000000 (0000ms, 0387ms total)
T2CB4 005:372 JLINK_ReadReg(R9)  returns 0x00000000 (0000ms, 0387ms total)
T2CB4 005:372 JLINK_ReadReg(R10)  returns 0x00000000 (0000ms, 0387ms total)
T2CB4 005:372 JLINK_ReadReg(R11)  returns 0x00000000 (0000ms, 0387ms total)
T2CB4 005:372 JLINK_ReadReg(R12)  returns 0x00000000 (0000ms, 0387ms total)
T2CB4 005:372 JLINK_ReadReg(R13 (SP))  returns 0x20006790 (0000ms, 0387ms total)
T2CB4 005:372 JLINK_ReadReg(R14)  returns 0x0800A48B (0000ms, 0387ms total)
T2CB4 005:372 JLINK_ReadReg(R15 (PC))  returns 0x080003CE (0000ms, 0387ms total)
T2CB4 005:372 JLINK_ReadReg(XPSR)  returns 0x61000000 (0000ms, 0387ms total)
T2CB4 005:372 JLINK_ReadReg(MSP)  returns 0x20006790 (0000ms, 0387ms total)
T2CB4 005:372 JLINK_ReadReg(PSP)  returns 0x00000000 (0000ms, 0387ms total)
T2CB4 005:372 JLINK_ReadReg(CFBP)  returns 0x04000000 (0000ms, 0387ms total)
T2CB4 005:372 JLINK_ReadReg(FPSCR)  returns 0x00000000 (0006ms, 0393ms total)
T2CB4 005:378 JLINK_ReadReg(FPS0)  returns 0x41700000 (0000ms, 0393ms total)
T2CB4 005:378 JLINK_ReadReg(FPS1)  returns 0x40240000 (0000ms, 0393ms total)
T2CB4 005:378 JLINK_ReadReg(FPS2)  returns 0x00000000 (0000ms, 0393ms total)
T2CB4 005:378 JLINK_ReadReg(FPS3)  returns 0x00000000 (0000ms, 0393ms total)
T2CB4 005:378 JLINK_ReadReg(FPS4)  returns 0x00000000 (0000ms, 0393ms total)
T2CB4 005:378 JLINK_ReadReg(FPS5)  returns 0x00000000 (0000ms, 0393ms total)
T2CB4 005:378 JLINK_ReadReg(FPS6)  returns 0x00000000 (0000ms, 0393ms total)
T2CB4 005:378 JLINK_ReadReg(FPS7)  returns 0x00000000 (0000ms, 0393ms total)
T2CB4 005:378 JLINK_ReadReg(FPS8)  returns 0x00000000 (0000ms, 0393ms total)
T2CB4 005:378 JLINK_ReadReg(FPS9)  returns 0x00000000 (0000ms, 0393ms total)
T2CB4 005:378 JLINK_ReadReg(FPS10)  returns 0x00000000 (0000ms, 0393ms total)
T2CB4 005:378 JLINK_ReadReg(FPS11)  returns 0x00000000 (0000ms, 0393ms total)
T2CB4 005:378 JLINK_ReadReg(FPS12)  returns 0x00000000 (0000ms, 0393ms total)
T2CB4 005:378 JLINK_ReadReg(FPS13)  returns 0x00000000 (0000ms, 0393ms total)
T2CB4 005:378 JLINK_ReadReg(FPS14)  returns 0x00000000 (0000ms, 0393ms total)
T2CB4 005:378 JLINK_ReadReg(FPS15)  returns 0x00000000 (0000ms, 0393ms total)
T2CB4 005:378 JLINK_ReadReg(FPS16)  returns 0x00000000 (0000ms, 0393ms total)
T2CB4 005:378 JLINK_ReadReg(FPS17)  returns 0x00000000 (0000ms, 0393ms total)
T2CB4 005:378 JLINK_ReadReg(FPS18)  returns 0x00000000 (0000ms, 0393ms total)
T2CB4 005:379 JLINK_ReadReg(FPS19)  returns 0x00000000 (0000ms, 0394ms total)
T2CB4 005:379 JLINK_ReadReg(FPS20)  returns 0x00000000 (0000ms, 0394ms total)
T2CB4 005:379 JLINK_ReadReg(FPS21)  returns 0x00000000 (0000ms, 0394ms total)
T2CB4 005:379 JLINK_ReadReg(FPS22)  returns 0x00000000 (0000ms, 0394ms total)
T2CB4 005:379 JLINK_ReadReg(FPS23)  returns 0x00000000 (0000ms, 0394ms total)
T2CB4 005:379 JLINK_ReadReg(FPS24)  returns 0x00000000 (0000ms, 0394ms total)
T2CB4 005:379 JLINK_ReadReg(FPS25)  returns 0x00000000 (0000ms, 0394ms total)
T2CB4 005:379 JLINK_ReadReg(FPS26)  returns 0x00000000 (0000ms, 0394ms total)
T2CB4 005:379 JLINK_ReadReg(FPS27)  returns 0x00000000 (0000ms, 0394ms total)
T2CB4 005:379 JLINK_ReadReg(FPS28)  returns 0x00000000 (0000ms, 0394ms total)
T2CB4 005:379 JLINK_ReadReg(FPS29)  returns 0x00000000 (0000ms, 0394ms total)
T2CB4 005:379 JLINK_ReadReg(FPS30)  returns 0x00000000 (0000ms, 0394ms total)
T2CB4 005:379 JLINK_ReadReg(FPS31)  returns 0x00000000 (0000ms, 0394ms total)
T2410 005:381 JLINK_ReadMem (0x00000000, 0x0004 Bytes, ...) -- CPU_ReadMem(4 bytes @ 0x00000004) -- CPU_ReadMem(64 bytes @ 0x08000000) -- Updating C cache (64 bytes @ 0x08000000) -- Read from C cache (4 bytes @ 0x08000000) - Data: 90 67 00 20  returns 0x00 (0002ms, 0396ms total)
T2410 005:386 JLINK_ReadMemU32(0xE0001004, 0x0001 Items, ...) -- CPU_ReadMem(4 bytes @ 0xE0001004) - Data: 60 1A 01 00  returns 0x01 (0001ms, 0397ms total)
T2410 005:406 JLINK_ReadMem (0x080003CA, 0x0002 Bytes, ...) -- CPU_ReadMem(64 bytes @ 0x080003C0) -- Updating C cache (64 bytes @ 0x080003C0) -- Read from C cache (2 bytes @ 0x080003CA) - Data: 0B B0  returns 0x00 (0001ms, 0398ms total)
T2410 005:407 JLINK_ReadMem (0x080003CC, 0x0034 Bytes, ...) -- Read from C cache (52 bytes @ 0x080003CC) - Data: 00 BD E6 B0 00 F0 CC FE 1E 20 00 F0 71 FF FF F7 ...  returns 0x00 (0001ms, 0399ms total)
T2410 005:408 JLINK_ReadMem (0x08000400, 0x0008 Bytes, ...) -- CPU_ReadMem(64 bytes @ 0x08000400) -- Updating C cache (64 bytes @ 0x08000400) -- Read from C cache (8 bytes @ 0x08000400) - Data: 4C B3 00 24 00 23 1A 46  returns 0x00 (0001ms, 0400ms total)
T2410 007:309 JLINK_ReadMem (0x20001E80, 0x0002 Bytes, ...) -- CPU_ReadMem(64 bytes @ 0x20001E80) -- Updating C cache (64 bytes @ 0x20001E80) -- Read from C cache (2 bytes @ 0x20001E80) - Data: 00 00  returns 0x00 (0002ms, 0402ms total)
T2410 007:311 JLINK_ReadMem (0x20001E82, 0x0002 Bytes, ...) -- Read from C cache (2 bytes @ 0x20001E82) - Data: 00 00  returns 0x00 (0000ms, 0402ms total)
T2410 007:311 JLINK_ReadMem (0x20001E84, 0x0002 Bytes, ...) -- Read from C cache (2 bytes @ 0x20001E84) - Data: 00 00  returns 0x00 (0000ms, 0402ms total)
T2410 007:311 JLINK_ReadMem (0x20001E86, 0x0002 Bytes, ...) -- Read from C cache (2 bytes @ 0x20001E86) - Data: 00 00  returns 0x00 (0000ms, 0402ms total)
T2410 007:311 JLINK_ReadMem (0x20001E88, 0x0002 Bytes, ...) -- Read from C cache (2 bytes @ 0x20001E88) - Data: 00 00  returns 0x00 (0000ms, 0402ms total)
T2410 007:311 JLINK_ReadMem (0x20001E8A, 0x0002 Bytes, ...) -- Read from C cache (2 bytes @ 0x20001E8A) - Data: 00 00  returns 0x00 (0000ms, 0402ms total)
T2410 008:855 JLINK_ReadMem (0x20001E8C, 0x0004 Bytes, ...) -- Read from C cache (4 bytes @ 0x20001E8C) - Data: 00 00 00 00  returns 0x00 (0000ms, 0402ms total)
T2410 008:855 JLINK_ReadMem (0x20001E90, 0x0004 Bytes, ...) -- Read from C cache (4 bytes @ 0x20001E90) - Data: 00 00 00 00  returns 0x00 (0000ms, 0402ms total)
T2410 008:855 JLINK_ReadMem (0x20001E94, 0x0004 Bytes, ...) -- Read from C cache (4 bytes @ 0x20001E94) - Data: 00 00 00 00  returns 0x00 (0000ms, 0402ms total)
T2410 008:855 JLINK_ReadMem (0x20001E98, 0x0001 Bytes, ...) -- Read from C cache (1 bytes @ 0x20001E98) - Data: 00  returns 0x00 (0000ms, 0402ms total)
T2CB4 011:843 JLINK_SetBPEx(Addr = 0x08000466, Type = 0xFFFFFFF2)  returns 0x00000003 (0000ms, 0402ms total)
T2CB4 011:843 JLINK_Go() -- CPU_WriteMem(4 bytes @ 0xE0002000) -- CPU_ReadMem(4 bytes @ 0xE0001000) -- CPU_WriteMem(4 bytes @ 0xE0002008) -- CPU_WriteMem(4 bytes @ 0xE000200C) (0003ms, 0405ms total)
T2CB4 011:947 JLINK_IsHalted()  returns FALSE (0000ms, 0405ms total)
T2CB4 012:047 JLINK_IsHalted()  returns FALSE (0000ms, 0405ms total)
T2CB4 012:149 JLINK_IsHalted()  returns FALSE (0000ms, 0405ms total)
T2CB4 012:250 JLINK_IsHalted()  returns FALSE (0000ms, 0405ms total)
T2CB4 012:351 JLINK_IsHalted()  returns FALSE (0000ms, 0405ms total)
T2CB4 012:452 JLINK_IsHalted()  returns FALSE (0000ms, 0405ms total)
T2CB4 012:553 JLINK_IsHalted()  returns FALSE (0000ms, 0405ms total)
T2CB4 012:654 JLINK_IsHalted()  returns FALSE (0000ms, 0405ms total)
T2CB4 012:755 JLINK_IsHalted()  returns TRUE (0003ms, 0408ms total)
T2CB4 012:758 JLINK_Halt()  returns 0x00 (0000ms, 0405ms total)
T2CB4 012:758 JLINK_IsHalted()  returns TRUE (0000ms, 0405ms total)
T2CB4 012:758 JLINK_IsHalted()  returns TRUE (0000ms, 0405ms total)
T2CB4 012:758 JLINK_IsHalted()  returns TRUE (0000ms, 0405ms total)
T2CB4 012:758 JLINK_ReadReg(R15 (PC))  returns 0x08000466 (0000ms, 0405ms total)
T2CB4 012:758 JLINK_ReadReg(XPSR)  returns 0x81000000 (0000ms, 0405ms total)
T2CB4 012:758 JLINK_ClrBPEx(BPHandle = 0x00000003)  returns 0x00 (0000ms, 0405ms total)
T2CB4 012:758 JLINK_ReadMemU32(0xE000ED30, 0x0001 Items, ...) -- CPU_ReadMem(4 bytes @ 0xE000ED30) - Data: 03 00 00 00  returns 0x01 (0001ms, 0406ms total)
T2CB4 012:759 JLINK_ReadMemU32(0xE0001028, 0x0001 Items, ...) -- CPU_ReadMem(4 bytes @ 0xE0001028) - Data: 00 00 00 00  returns 0x01 (0001ms, 0407ms total)
T2CB4 012:760 JLINK_ReadMemU32(0xE0001038, 0x0001 Items, ...) -- CPU_ReadMem(4 bytes @ 0xE0001038) - Data: 00 02 00 00  returns 0x01 (0000ms, 0407ms total)
T2CB4 012:760 JLINK_ReadMemU32(0xE0001048, 0x0001 Items, ...) -- CPU_ReadMem(4 bytes @ 0xE0001048) - Data: 00 00 00 00  returns 0x01 (0001ms, 0408ms total)
T2CB4 012:761 JLINK_ReadMemU32(0xE0001058, 0x0001 Items, ...) -- CPU_ReadMem(4 bytes @ 0xE0001058) - Data: 00 00 00 00  returns 0x01 (0001ms, 0409ms total)
T2CB4 012:762 JLINK_ReadReg(R0)  returns 0x20001E8C (0000ms, 0409ms total)
T2CB4 012:762 JLINK_ReadReg(R1)  returns 0x00000000 (0000ms, 0409ms total)
T2CB4 012:762 JLINK_ReadReg(R2)  returns 0x00000000 (0000ms, 0409ms total)
T2CB4 012:762 JLINK_ReadReg(R3)  returns 0xD8F0E0C0 (0000ms, 0409ms total)
T2CB4 012:762 JLINK_ReadReg(R4)  returns 0x00000000 (0000ms, 0409ms total)
T2CB4 012:762 JLINK_ReadReg(R5)  returns 0x0800E45C (0000ms, 0409ms total)
T2CB4 012:762 JLINK_ReadReg(R6)  returns 0x00000000 (0000ms, 0409ms total)
T2CB4 012:762 JLINK_ReadReg(R7)  returns 0x00000000 (0000ms, 0409ms total)
T2CB4 012:762 JLINK_ReadReg(R8)  returns 0x00000000 (0000ms, 0409ms total)
T2CB4 012:762 JLINK_ReadReg(R9)  returns 0x00000000 (0000ms, 0409ms total)
T2CB4 012:762 JLINK_ReadReg(R10)  returns 0x00000000 (0000ms, 0409ms total)
T2CB4 012:762 JLINK_ReadReg(R11)  returns 0x00000000 (0000ms, 0409ms total)
T2CB4 012:762 JLINK_ReadReg(R12)  returns 0x00000150 (0001ms, 0410ms total)
T2CB4 012:763 JLINK_ReadReg(R13 (SP))  returns 0x200065F8 (0000ms, 0410ms total)
T2CB4 012:763 JLINK_ReadReg(R14)  returns 0x08009EF9 (0000ms, 0410ms total)
T2CB4 012:763 JLINK_ReadReg(R15 (PC))  returns 0x08000466 (0000ms, 0410ms total)
T2CB4 012:763 JLINK_ReadReg(XPSR)  returns 0x81000000 (0000ms, 0410ms total)
T2CB4 012:763 JLINK_ReadReg(MSP)  returns 0x200065F8 (0000ms, 0410ms total)
T2CB4 012:763 JLINK_ReadReg(PSP)  returns 0x00000000 (0000ms, 0410ms total)
T2CB4 012:763 JLINK_ReadReg(CFBP)  returns 0x04000000 (0000ms, 0410ms total)
T2CB4 012:763 JLINK_ReadReg(FPSCR)  returns 0x00000000 (0005ms, 0415ms total)
T2CB4 012:768 JLINK_ReadReg(FPS0)  returns 0x41700000 (0000ms, 0415ms total)
T2CB4 012:768 JLINK_ReadReg(FPS1)  returns 0x40240000 (0000ms, 0415ms total)
T2CB4 012:768 JLINK_ReadReg(FPS2)  returns 0x00000000 (0000ms, 0415ms total)
T2CB4 012:768 JLINK_ReadReg(FPS3)  returns 0x00000000 (0000ms, 0415ms total)
T2CB4 012:768 JLINK_ReadReg(FPS4)  returns 0x00000000 (0000ms, 0415ms total)
T2CB4 012:768 JLINK_ReadReg(FPS5)  returns 0x00000000 (0000ms, 0415ms total)
T2CB4 012:768 JLINK_ReadReg(FPS6)  returns 0x00000000 (0000ms, 0415ms total)
T2CB4 012:768 JLINK_ReadReg(FPS7)  returns 0x00000000 (0000ms, 0415ms total)
T2CB4 012:768 JLINK_ReadReg(FPS8)  returns 0x00000000 (0000ms, 0415ms total)
T2CB4 012:768 JLINK_ReadReg(FPS9)  returns 0x00000000 (0000ms, 0415ms total)
T2CB4 012:768 JLINK_ReadReg(FPS10)  returns 0x00000000 (0000ms, 0415ms total)
T2CB4 012:768 JLINK_ReadReg(FPS11)  returns 0x00000000 (0000ms, 0415ms total)
T2CB4 012:769 JLINK_ReadReg(FPS12)  returns 0x00000000 (0000ms, 0416ms total)
T2CB4 012:769 JLINK_ReadReg(FPS13)  returns 0x00000000 (0000ms, 0416ms total)
T2CB4 012:769 JLINK_ReadReg(FPS14)  returns 0x00000000 (0000ms, 0416ms total)
T2CB4 012:769 JLINK_ReadReg(FPS15)  returns 0x00000000 (0000ms, 0416ms total)
T2CB4 012:769 JLINK_ReadReg(FPS16)  returns 0x00000000 (0000ms, 0416ms total)
T2CB4 012:769 JLINK_ReadReg(FPS17)  returns 0x00000000 (0000ms, 0416ms total)
T2CB4 012:769 JLINK_ReadReg(FPS18)  returns 0x00000000 (0000ms, 0416ms total)
T2CB4 012:769 JLINK_ReadReg(FPS19)  returns 0x00000000 (0000ms, 0416ms total)
T2CB4 012:769 JLINK_ReadReg(FPS20)  returns 0x00000000 (0000ms, 0416ms total)
T2CB4 012:769 JLINK_ReadReg(FPS21)  returns 0x00000000 (0000ms, 0416ms total)
T2CB4 012:769 JLINK_ReadReg(FPS22)  returns 0x00000000 (0000ms, 0416ms total)
T2CB4 012:769 JLINK_ReadReg(FPS23)  returns 0x00000000 (0000ms, 0416ms total)
T2CB4 012:769 JLINK_ReadReg(FPS24)  returns 0x00000000 (0000ms, 0416ms total)
T2CB4 012:769 JLINK_ReadReg(FPS25)  returns 0x00000000 (0000ms, 0416ms total)
T2CB4 012:769 JLINK_ReadReg(FPS26)  returns 0x00000000 (0000ms, 0416ms total)
T2CB4 012:769 JLINK_ReadReg(FPS27)  returns 0x00000000 (0000ms, 0416ms total)
T2CB4 012:769 JLINK_ReadReg(FPS28)  returns 0x00000000 (0000ms, 0416ms total)
T2CB4 012:769 JLINK_ReadReg(FPS29)  returns 0x00000000 (0000ms, 0416ms total)
T2CB4 012:769 JLINK_ReadReg(FPS30)  returns 0x00000000 (0000ms, 0416ms total)
T2CB4 012:769 JLINK_ReadReg(FPS31)  returns 0x00000000 (0000ms, 0416ms total)
T2410 012:770 JLINK_ReadMem (0x00000000, 0x0004 Bytes, ...) -- CPU_ReadMem(4 bytes @ 0x00000004) -- CPU_ReadMem(64 bytes @ 0x08000000) -- Updating C cache (64 bytes @ 0x08000000) -- Read from C cache (4 bytes @ 0x08000000) - Data: 90 67 00 20  returns 0x00 (0002ms, 0418ms total)
T2410 012:772 JLINK_ReadMemU32(0xE0001004, 0x0001 Items, ...) -- CPU_ReadMem(4 bytes @ 0xE0001004) - Data: 00 00 53 08  returns 0x01 (0001ms, 0419ms total)
T2410 012:777 JLINK_ReadMem (0x20001E80, 0x0002 Bytes, ...) -- CPU_ReadMem(64 bytes @ 0x20001E80) -- Updating C cache (64 bytes @ 0x20001E80) -- Read from C cache (2 bytes @ 0x20001E80) - Data: 00 00  returns 0x00 (0001ms, 0420ms total)
T2410 012:778 JLINK_ReadMem (0x20001E82, 0x0002 Bytes, ...) -- Read from C cache (2 bytes @ 0x20001E82) - Data: 00 00  returns 0x00 (0000ms, 0420ms total)
T2410 012:778 JLINK_ReadMem (0x20001E84, 0x0002 Bytes, ...) -- Read from C cache (2 bytes @ 0x20001E84) - Data: 00 00  returns 0x00 (0000ms, 0420ms total)
T2410 012:778 JLINK_ReadMem (0x20001E86, 0x0002 Bytes, ...) -- Read from C cache (2 bytes @ 0x20001E86) - Data: 00 00  returns 0x00 (0000ms, 0420ms total)
T2410 012:778 JLINK_ReadMem (0x20001E88, 0x0002 Bytes, ...) -- Read from C cache (2 bytes @ 0x20001E88) - Data: C0 E0  returns 0x00 (0000ms, 0420ms total)
T2410 012:779 JLINK_ReadMem (0x20001E8A, 0x0002 Bytes, ...) -- Read from C cache (2 bytes @ 0x20001E8A) - Data: F0 D8  returns 0x00 (0000ms, 0420ms total)
T2410 012:780 JLINK_ReadMem (0x20001E8C, 0x0004 Bytes, ...) -- Read from C cache (4 bytes @ 0x20001E8C) - Data: 00 00 00 00  returns 0x00 (0000ms, 0420ms total)
T2410 012:780 JLINK_ReadMem (0x20001E90, 0x0004 Bytes, ...) -- Read from C cache (4 bytes @ 0x20001E90) - Data: 00 00 00 00  returns 0x00 (0000ms, 0420ms total)
T2410 012:780 JLINK_ReadMem (0x20001E94, 0x0004 Bytes, ...) -- Read from C cache (4 bytes @ 0x20001E94) - Data: 00 00 00 00  returns 0x00 (0000ms, 0420ms total)
T2410 012:780 JLINK_ReadMem (0x20001E98, 0x0001 Bytes, ...) -- Read from C cache (1 bytes @ 0x20001E98) - Data: 00  returns 0x00 (0000ms, 0420ms total)
T2410 012:789 JLINK_ReadMem (0x08000456, 0x0002 Bytes, ...) -- CPU_ReadMem(64 bytes @ 0x08000440) -- Updating C cache (64 bytes @ 0x08000440) -- Read from C cache (2 bytes @ 0x08000456) - Data: 4E 49  returns 0x00 (0001ms, 0421ms total)
T2410 012:790 JLINK_ReadMem (0x08000458, 0x003C Bytes, ...) -- CPU_ReadMem(64 bytes @ 0x08000480) -- Updating C cache (64 bytes @ 0x08000480) -- Read from C cache (60 bytes @ 0x08000458) - Data: 63 A8 09 F0 40 FD 4D 48 63 A9 0E C9 0E C0 46 48 ...  returns 0x00 (0001ms, 0422ms total)
T2CB4 016:700 JLINK_Step() -- Read from C cache (2 bytes @ 0x08000466) -- CPU_ReadMem(4 bytes @ 0xE000ED18) -- CPU_WriteMem(4 bytes @ 0xE000ED18) -- CPU_ReadMem(4 bytes @ 0xE000ED18) -- CPU_WriteMem(4 bytes @ 0xE000ED18) -- CPU_ReadMem(64 bytes @ 0x08000580) -- Updating C cache (64 bytes @ 0x08000580) -- Read from C cache (4 bytes @ 0x08000580) -- Simulated  returns 0x00 (0004ms, 0426ms total)
T2CB4 016:704 JLINK_ReadReg(R15 (PC))  returns 0x08000468 (0000ms, 0426ms total)
T2CB4 016:704 JLINK_ReadReg(XPSR)  returns 0x81000000 (0000ms, 0426ms total)
T2CB4 016:704 JLINK_SetBPEx(Addr = 0x08000466, Type = 0xFFFFFFF2)  returns 0x00000004 (0000ms, 0426ms total)
T2CB4 016:704 JLINK_Go() -- CPU_WriteMem(4 bytes @ 0xE0002000) -- CPU_ReadMem(4 bytes @ 0xE0001000) -- CPU_WriteMem(4 bytes @ 0xE0001004) (0003ms, 0429ms total)
T2CB4 016:808 JLINK_IsHalted()  returns TRUE (0003ms, 0432ms total)
T2CB4 016:811 JLINK_Halt()  returns 0x00 (0000ms, 0429ms total)
T2CB4 016:811 JLINK_IsHalted()  returns TRUE (0000ms, 0429ms total)
T2CB4 016:811 JLINK_IsHalted()  returns TRUE (0000ms, 0429ms total)
T2CB4 016:811 JLINK_IsHalted()  returns TRUE (0000ms, 0429ms total)
T2CB4 016:811 JLINK_ReadReg(R15 (PC))  returns 0x08000466 (0000ms, 0429ms total)
T2CB4 016:811 JLINK_ReadReg(XPSR)  returns 0x81000000 (0000ms, 0429ms total)
T2CB4 016:811 JLINK_ClrBPEx(BPHandle = 0x00000004)  returns 0x00 (0000ms, 0429ms total)
T2CB4 016:811 JLINK_ReadMemU32(0xE000ED30, 0x0001 Items, ...) -- CPU_ReadMem(4 bytes @ 0xE000ED30) - Data: 03 00 00 00  returns 0x01 (0001ms, 0430ms total)
T2CB4 016:812 JLINK_ReadMemU32(0xE0001028, 0x0001 Items, ...) -- CPU_ReadMem(4 bytes @ 0xE0001028) - Data: 00 00 00 00  returns 0x01 (0001ms, 0431ms total)
T2CB4 016:813 JLINK_ReadMemU32(0xE0001038, 0x0001 Items, ...) -- CPU_ReadMem(4 bytes @ 0xE0001038) - Data: 00 02 00 00  returns 0x01 (0000ms, 0431ms total)
T2CB4 016:813 JLINK_ReadMemU32(0xE0001048, 0x0001 Items, ...) -- CPU_ReadMem(4 bytes @ 0xE0001048) - Data: 00 00 00 00  returns 0x01 (0001ms, 0432ms total)
T2CB4 016:814 JLINK_ReadMemU32(0xE0001058, 0x0001 Items, ...) -- CPU_ReadMem(4 bytes @ 0xE0001058) - Data: 00 00 00 00  returns 0x01 (0001ms, 0433ms total)
T2CB4 016:815 JLINK_ReadReg(R0)  returns 0x20001E8C (0000ms, 0433ms total)
T2CB4 016:815 JLINK_ReadReg(R1)  returns 0x00000000 (0000ms, 0433ms total)
T2CB4 016:815 JLINK_ReadReg(R2)  returns 0x00000000 (0000ms, 0433ms total)
T2CB4 016:815 JLINK_ReadReg(R3)  returns 0xD8F0E0C0 (0000ms, 0433ms total)
T2CB4 016:815 JLINK_ReadReg(R4)  returns 0x00000000 (0000ms, 0433ms total)
T2CB4 016:815 JLINK_ReadReg(R5)  returns 0x0800E45C (0000ms, 0433ms total)
T2CB4 016:815 JLINK_ReadReg(R6)  returns 0x00000000 (0000ms, 0433ms total)
T2CB4 016:815 JLINK_ReadReg(R7)  returns 0x00000000 (0000ms, 0433ms total)
T2CB4 016:815 JLINK_ReadReg(R8)  returns 0x00000000 (0000ms, 0433ms total)
T2CB4 016:815 JLINK_ReadReg(R9)  returns 0x00000000 (0000ms, 0433ms total)
T2CB4 016:815 JLINK_ReadReg(R10)  returns 0x00000000 (0000ms, 0433ms total)
T2CB4 016:815 JLINK_ReadReg(R11)  returns 0x00000000 (0000ms, 0433ms total)
T2CB4 016:815 JLINK_ReadReg(R12)  returns 0x00000150 (0000ms, 0433ms total)
T2CB4 016:815 JLINK_ReadReg(R13 (SP))  returns 0x200065F8 (0000ms, 0433ms total)
T2CB4 016:815 JLINK_ReadReg(R14)  returns 0x08009EF9 (0000ms, 0433ms total)
T2CB4 016:815 JLINK_ReadReg(R15 (PC))  returns 0x08000466 (0000ms, 0433ms total)
T2CB4 016:815 JLINK_ReadReg(XPSR)  returns 0x81000000 (0000ms, 0433ms total)
T2CB4 016:815 JLINK_ReadReg(MSP)  returns 0x200065F8 (0000ms, 0433ms total)
T2CB4 016:815 JLINK_ReadReg(PSP)  returns 0x00000000 (0000ms, 0433ms total)
T2CB4 016:815 JLINK_ReadReg(CFBP)  returns 0x04000000 (0000ms, 0433ms total)
T2CB4 016:815 JLINK_ReadReg(FPSCR)  returns 0x00000000 (0005ms, 0438ms total)
T2CB4 016:820 JLINK_ReadReg(FPS0)  returns 0x41700000 (0000ms, 0438ms total)
T2CB4 016:820 JLINK_ReadReg(FPS1)  returns 0x40240000 (0000ms, 0438ms total)
T2CB4 016:820 JLINK_ReadReg(FPS2)  returns 0x00000000 (0000ms, 0438ms total)
T2CB4 016:820 JLINK_ReadReg(FPS3)  returns 0x00000000 (0000ms, 0438ms total)
T2CB4 016:820 JLINK_ReadReg(FPS4)  returns 0x00000000 (0000ms, 0438ms total)
T2CB4 016:820 JLINK_ReadReg(FPS5)  returns 0x00000000 (0000ms, 0438ms total)
T2CB4 016:820 JLINK_ReadReg(FPS6)  returns 0x00000000 (0000ms, 0438ms total)
T2CB4 016:820 JLINK_ReadReg(FPS7)  returns 0x00000000 (0000ms, 0438ms total)
T2CB4 016:820 JLINK_ReadReg(FPS8)  returns 0x00000000 (0000ms, 0438ms total)
T2CB4 016:820 JLINK_ReadReg(FPS9)  returns 0x00000000 (0000ms, 0438ms total)
T2CB4 016:820 JLINK_ReadReg(FPS10)  returns 0x00000000 (0000ms, 0438ms total)
T2CB4 016:820 JLINK_ReadReg(FPS11)  returns 0x00000000 (0000ms, 0438ms total)
T2CB4 016:820 JLINK_ReadReg(FPS12)  returns 0x00000000 (0000ms, 0438ms total)
T2CB4 016:820 JLINK_ReadReg(FPS13)  returns 0x00000000 (0000ms, 0438ms total)
T2CB4 016:820 JLINK_ReadReg(FPS14)  returns 0x00000000 (0000ms, 0438ms total)
T2CB4 016:820 JLINK_ReadReg(FPS15)  returns 0x00000000 (0000ms, 0438ms total)
T2CB4 016:820 JLINK_ReadReg(FPS16)  returns 0x00000000 (0001ms, 0439ms total)
T2CB4 016:821 JLINK_ReadReg(FPS17)  returns 0x00000000 (0000ms, 0439ms total)
T2CB4 016:821 JLINK_ReadReg(FPS18)  returns 0x00000000 (0000ms, 0439ms total)
T2CB4 016:821 JLINK_ReadReg(FPS19)  returns 0x00000000 (0000ms, 0439ms total)
T2CB4 016:821 JLINK_ReadReg(FPS20)  returns 0x00000000 (0000ms, 0439ms total)
T2CB4 016:821 JLINK_ReadReg(FPS21)  returns 0x00000000 (0000ms, 0439ms total)
T2CB4 016:821 JLINK_ReadReg(FPS22)  returns 0x00000000 (0000ms, 0439ms total)
T2CB4 016:821 JLINK_ReadReg(FPS23)  returns 0x00000000 (0000ms, 0439ms total)
T2CB4 016:821 JLINK_ReadReg(FPS24)  returns 0x00000000 (0000ms, 0439ms total)
T2CB4 016:821 JLINK_ReadReg(FPS25)  returns 0x00000000 (0000ms, 0439ms total)
T2CB4 016:821 JLINK_ReadReg(FPS26)  returns 0x00000000 (0000ms, 0439ms total)
T2CB4 016:821 JLINK_ReadReg(FPS27)  returns 0x00000000 (0000ms, 0439ms total)
T2CB4 016:821 JLINK_ReadReg(FPS28)  returns 0x00000000 (0000ms, 0439ms total)
T2CB4 016:821 JLINK_ReadReg(FPS29)  returns 0x00000000 (0000ms, 0439ms total)
T2CB4 016:821 JLINK_ReadReg(FPS30)  returns 0x00000000 (0000ms, 0439ms total)
T2CB4 016:821 JLINK_ReadReg(FPS31)  returns 0x00000000 (0000ms, 0439ms total)
T2410 016:822 JLINK_ReadMem (0x00000000, 0x0004 Bytes, ...) -- CPU_ReadMem(4 bytes @ 0x00000004) -- CPU_ReadMem(64 bytes @ 0x08000000) -- Updating C cache (64 bytes @ 0x08000000) -- Read from C cache (4 bytes @ 0x08000000) - Data: 90 67 00 20  returns 0x00 (0002ms, 0441ms total)
T2410 016:824 JLINK_ReadMemU32(0xE0001004, 0x0001 Items, ...) -- CPU_ReadMem(4 bytes @ 0xE0001004) - Data: 2C 0D 53 08  returns 0x01 (0001ms, 0442ms total)
T2410 016:826 JLINK_ReadMem (0x20001E80, 0x0002 Bytes, ...) -- CPU_ReadMem(64 bytes @ 0x20001E80) -- Updating C cache (64 bytes @ 0x20001E80) -- Read from C cache (2 bytes @ 0x20001E80) - Data: 00 00  returns 0x00 (0002ms, 0444ms total)
T2410 016:828 JLINK_ReadMem (0x20001E82, 0x0002 Bytes, ...) -- Read from C cache (2 bytes @ 0x20001E82) - Data: 00 00  returns 0x00 (0000ms, 0444ms total)
T2410 016:828 JLINK_ReadMem (0x20001E84, 0x0002 Bytes, ...) -- Read from C cache (2 bytes @ 0x20001E84) - Data: 00 00  returns 0x00 (0000ms, 0444ms total)
T2410 016:828 JLINK_ReadMem (0x20001E86, 0x0002 Bytes, ...) -- Read from C cache (2 bytes @ 0x20001E86) - Data: 00 00  returns 0x00 (0000ms, 0444ms total)
T2410 016:828 JLINK_ReadMem (0x20001E88, 0x0002 Bytes, ...) -- Read from C cache (2 bytes @ 0x20001E88) - Data: C0 E0  returns 0x00 (0000ms, 0444ms total)
T2410 016:828 JLINK_ReadMem (0x20001E8A, 0x0002 Bytes, ...) -- Read from C cache (2 bytes @ 0x20001E8A) - Data: F0 D8  returns 0x00 (0000ms, 0444ms total)
T2410 016:828 JLINK_ReadMem (0x20001E8C, 0x0004 Bytes, ...) -- Read from C cache (4 bytes @ 0x20001E8C) - Data: 00 00 00 00  returns 0x00 (0000ms, 0444ms total)
T2410 016:828 JLINK_ReadMem (0x20001E90, 0x0004 Bytes, ...) -- Read from C cache (4 bytes @ 0x20001E90) - Data: 00 00 00 00  returns 0x00 (0001ms, 0445ms total)
T2410 016:829 JLINK_ReadMem (0x20001E94, 0x0004 Bytes, ...) -- Read from C cache (4 bytes @ 0x20001E94) - Data: 00 00 00 00  returns 0x00 (0000ms, 0445ms total)
T2410 016:829 JLINK_ReadMem (0x20001E98, 0x0001 Bytes, ...) -- Read from C cache (1 bytes @ 0x20001E98) - Data: 00  returns 0x00 (0000ms, 0445ms total)
T2410 016:834 JLINK_ReadMem (0x08000456, 0x0002 Bytes, ...) -- CPU_ReadMem(64 bytes @ 0x08000440) -- Updating C cache (64 bytes @ 0x08000440) -- Read from C cache (2 bytes @ 0x08000456) - Data: 4E 49  returns 0x00 (0002ms, 0447ms total)
T2410 016:836 JLINK_ReadMem (0x08000458, 0x003C Bytes, ...) -- CPU_ReadMem(64 bytes @ 0x08000480) -- Updating C cache (64 bytes @ 0x08000480) -- Read from C cache (60 bytes @ 0x08000458) - Data: 63 A8 09 F0 40 FD 4D 48 63 A9 0E C9 0E C0 46 48 ...  returns 0x00 (0001ms, 0448ms total)
T2CB4 020:134 JLINK_Step() -- Read from C cache (2 bytes @ 0x08000466) -- CPU_ReadMem(64 bytes @ 0x08000580) -- Updating C cache (64 bytes @ 0x08000580) -- Read from C cache (4 bytes @ 0x08000580) -- Simulated  returns 0x00 (0002ms, 0450ms total)
T2CB4 020:136 JLINK_ReadReg(R15 (PC))  returns 0x08000468 (0000ms, 0450ms total)
T2CB4 020:136 JLINK_ReadReg(XPSR)  returns 0x81000000 (0000ms, 0450ms total)
T2CB4 020:136 JLINK_SetBPEx(Addr = 0x08000466, Type = 0xFFFFFFF2)  returns 0x00000005 (0000ms, 0450ms total)
T2CB4 020:136 JLINK_Go() -- CPU_WriteMem(4 bytes @ 0xE0002000) -- CPU_ReadMem(4 bytes @ 0xE0001000) -- CPU_WriteMem(4 bytes @ 0xE0001004) (0003ms, 0453ms total)
T2CB4 020:239 JLINK_IsHalted()  returns TRUE (0004ms, 0457ms total)
T2CB4 020:243 JLINK_Halt()  returns 0x00 (0000ms, 0453ms total)
T2CB4 020:243 JLINK_IsHalted()  returns TRUE (0000ms, 0453ms total)
T2CB4 020:243 JLINK_IsHalted()  returns TRUE (0000ms, 0453ms total)
T2CB4 020:243 JLINK_IsHalted()  returns TRUE (0000ms, 0453ms total)
T2CB4 020:243 JLINK_ReadReg(R15 (PC))  returns 0x08000466 (0000ms, 0453ms total)
T2CB4 020:243 JLINK_ReadReg(XPSR)  returns 0x81000000 (0000ms, 0453ms total)
T2CB4 020:243 JLINK_ClrBPEx(BPHandle = 0x00000005)  returns 0x00 (0000ms, 0453ms total)
T2CB4 020:243 JLINK_ReadMemU32(0xE000ED30, 0x0001 Items, ...) -- CPU_ReadMem(4 bytes @ 0xE000ED30) - Data: 03 00 00 00  returns 0x01 (0000ms, 0453ms total)
T2CB4 020:243 JLINK_ReadMemU32(0xE0001028, 0x0001 Items, ...) -- CPU_ReadMem(4 bytes @ 0xE0001028) - Data: 00 00 00 00  returns 0x01 (0001ms, 0454ms total)
T2CB4 020:244 JLINK_ReadMemU32(0xE0001038, 0x0001 Items, ...) -- CPU_ReadMem(4 bytes @ 0xE0001038) - Data: 00 02 00 00  returns 0x01 (0001ms, 0455ms total)
T2CB4 020:245 JLINK_ReadMemU32(0xE0001048, 0x0001 Items, ...) -- CPU_ReadMem(4 bytes @ 0xE0001048) - Data: 00 00 00 00  returns 0x01 (0000ms, 0455ms total)
T2CB4 020:245 JLINK_ReadMemU32(0xE0001058, 0x0001 Items, ...) -- CPU_ReadMem(4 bytes @ 0xE0001058) - Data: 00 00 00 00  returns 0x01 (0001ms, 0456ms total)
T2CB4 020:246 JLINK_ReadReg(R0)  returns 0x20001E8C (0000ms, 0456ms total)
T2CB4 020:246 JLINK_ReadReg(R1)  returns 0x00000000 (0000ms, 0456ms total)
T2CB4 020:246 JLINK_ReadReg(R2)  returns 0x00000000 (0000ms, 0456ms total)
T2CB4 020:246 JLINK_ReadReg(R3)  returns 0xD8F0E0C0 (0000ms, 0456ms total)
T2CB4 020:246 JLINK_ReadReg(R4)  returns 0x00000000 (0000ms, 0456ms total)
T2CB4 020:246 JLINK_ReadReg(R5)  returns 0x0800E45C (0000ms, 0456ms total)
T2CB4 020:246 JLINK_ReadReg(R6)  returns 0x00000000 (0000ms, 0456ms total)
T2CB4 020:246 JLINK_ReadReg(R7)  returns 0x00000000 (0000ms, 0456ms total)
T2CB4 020:246 JLINK_ReadReg(R8)  returns 0x00000000 (0000ms, 0456ms total)
T2CB4 020:246 JLINK_ReadReg(R9)  returns 0x00000000 (0000ms, 0456ms total)
T2CB4 020:246 JLINK_ReadReg(R10)  returns 0x00000000 (0000ms, 0456ms total)
T2CB4 020:246 JLINK_ReadReg(R11)  returns 0x00000000 (0000ms, 0456ms total)
T2CB4 020:246 JLINK_ReadReg(R12)  returns 0x00000150 (0000ms, 0456ms total)
T2CB4 020:246 JLINK_ReadReg(R13 (SP))  returns 0x200065F8 (0000ms, 0456ms total)
T2CB4 020:246 JLINK_ReadReg(R14)  returns 0x08009EF9 (0000ms, 0456ms total)
T2CB4 020:246 JLINK_ReadReg(R15 (PC))  returns 0x08000466 (0000ms, 0456ms total)
T2CB4 020:246 JLINK_ReadReg(XPSR)  returns 0x81000000 (0000ms, 0456ms total)
T2CB4 020:246 JLINK_ReadReg(MSP)  returns 0x200065F8 (0000ms, 0456ms total)
T2CB4 020:246 JLINK_ReadReg(PSP)  returns 0x00000000 (0000ms, 0456ms total)
T2CB4 020:246 JLINK_ReadReg(CFBP)  returns 0x04000000 (0000ms, 0456ms total)
T2CB4 020:246 JLINK_ReadReg(FPSCR)  returns 0x00000000 (0005ms, 0461ms total)
T2CB4 020:251 JLINK_ReadReg(FPS0)  returns 0x41700000 (0000ms, 0461ms total)
T2CB4 020:251 JLINK_ReadReg(FPS1)  returns 0x40240000 (0000ms, 0461ms total)
T2CB4 020:251 JLINK_ReadReg(FPS2)  returns 0x00000000 (0000ms, 0461ms total)
T2CB4 020:251 JLINK_ReadReg(FPS3)  returns 0x00000000 (0000ms, 0461ms total)
T2CB4 020:251 JLINK_ReadReg(FPS4)  returns 0x00000000 (0000ms, 0461ms total)
T2CB4 020:251 JLINK_ReadReg(FPS5)  returns 0x00000000 (0000ms, 0461ms total)
T2CB4 020:251 JLINK_ReadReg(FPS6)  returns 0x00000000 (0000ms, 0461ms total)
T2CB4 020:251 JLINK_ReadReg(FPS7)  returns 0x00000000 (0000ms, 0461ms total)
T2CB4 020:251 JLINK_ReadReg(FPS8)  returns 0x00000000 (0000ms, 0461ms total)
T2CB4 020:251 JLINK_ReadReg(FPS9)  returns 0x00000000 (0000ms, 0461ms total)
T2CB4 020:251 JLINK_ReadReg(FPS10)  returns 0x00000000 (0000ms, 0461ms total)
T2CB4 020:251 JLINK_ReadReg(FPS11)  returns 0x00000000 (0000ms, 0461ms total)
T2CB4 020:251 JLINK_ReadReg(FPS12)  returns 0x00000000 (0000ms, 0461ms total)
T2CB4 020:251 JLINK_ReadReg(FPS13)  returns 0x00000000 (0000ms, 0461ms total)
T2CB4 020:251 JLINK_ReadReg(FPS14)  returns 0x00000000 (0000ms, 0461ms total)
T2CB4 020:251 JLINK_ReadReg(FPS15)  returns 0x00000000 (0000ms, 0461ms total)
T2CB4 020:251 JLINK_ReadReg(FPS16)  returns 0x00000000 (0000ms, 0461ms total)
T2CB4 020:251 JLINK_ReadReg(FPS17)  returns 0x00000000 (0000ms, 0461ms total)
T2CB4 020:251 JLINK_ReadReg(FPS18)  returns 0x00000000 (0000ms, 0461ms total)
T2CB4 020:251 JLINK_ReadReg(FPS19)  returns 0x00000000 (0000ms, 0461ms total)
T2CB4 020:251 JLINK_ReadReg(FPS20)  returns 0x00000000 (0000ms, 0461ms total)
T2CB4 020:251 JLINK_ReadReg(FPS21)  returns 0x00000000 (0000ms, 0461ms total)
T2CB4 020:251 JLINK_ReadReg(FPS22)  returns 0x00000000 (0000ms, 0461ms total)
T2CB4 020:251 JLINK_ReadReg(FPS23)  returns 0x00000000 (0000ms, 0461ms total)
T2CB4 020:251 JLINK_ReadReg(FPS24)  returns 0x00000000 (0001ms, 0462ms total)
T2CB4 020:252 JLINK_ReadReg(FPS25)  returns 0x00000000 (0000ms, 0462ms total)
T2CB4 020:252 JLINK_ReadReg(FPS26)  returns 0x00000000 (0000ms, 0462ms total)
T2CB4 020:252 JLINK_ReadReg(FPS27)  returns 0x00000000 (0000ms, 0462ms total)
T2CB4 020:252 JLINK_ReadReg(FPS28)  returns 0x00000000 (0000ms, 0462ms total)
T2CB4 020:252 JLINK_ReadReg(FPS29)  returns 0x00000000 (0000ms, 0462ms total)
T2CB4 020:252 JLINK_ReadReg(FPS30)  returns 0x00000000 (0000ms, 0462ms total)
T2CB4 020:252 JLINK_ReadReg(FPS31)  returns 0x00000000 (0000ms, 0462ms total)
T2410 020:253 JLINK_ReadMem (0x00000000, 0x0004 Bytes, ...) -- CPU_ReadMem(4 bytes @ 0x00000004) -- CPU_ReadMem(64 bytes @ 0x08000000) -- Updating C cache (64 bytes @ 0x08000000) -- Read from C cache (4 bytes @ 0x08000000) - Data: 90 67 00 20  returns 0x00 (0002ms, 0464ms total)
T2410 020:255 JLINK_ReadMemU32(0xE0001004, 0x0001 Items, ...) -- CPU_ReadMem(4 bytes @ 0xE0001004) - Data: 11 1A 53 08  returns 0x01 (0000ms, 0464ms total)
T2410 020:256 JLINK_ReadMem (0x20001E80, 0x0002 Bytes, ...) -- CPU_ReadMem(64 bytes @ 0x20001E80) -- Updating C cache (64 bytes @ 0x20001E80) -- Read from C cache (2 bytes @ 0x20001E80) - Data: 00 00  returns 0x00 (0001ms, 0465ms total)
T2410 020:257 JLINK_ReadMem (0x20001E82, 0x0002 Bytes, ...) -- Read from C cache (2 bytes @ 0x20001E82) - Data: 00 00  returns 0x00 (0000ms, 0465ms total)
T2410 020:257 JLINK_ReadMem (0x20001E84, 0x0002 Bytes, ...) -- Read from C cache (2 bytes @ 0x20001E84) - Data: 00 00  returns 0x00 (0000ms, 0465ms total)
T2410 020:257 JLINK_ReadMem (0x20001E86, 0x0002 Bytes, ...) -- Read from C cache (2 bytes @ 0x20001E86) - Data: 00 00  returns 0x00 (0000ms, 0465ms total)
T2410 020:257 JLINK_ReadMem (0x20001E88, 0x0002 Bytes, ...) -- Read from C cache (2 bytes @ 0x20001E88) - Data: C0 E0  returns 0x00 (0000ms, 0465ms total)
T2410 020:257 JLINK_ReadMem (0x20001E8A, 0x0002 Bytes, ...) -- Read from C cache (2 bytes @ 0x20001E8A) - Data: F0 D8  returns 0x00 (0000ms, 0465ms total)
T2410 020:257 JLINK_ReadMem (0x20001E8C, 0x0004 Bytes, ...) -- Read from C cache (4 bytes @ 0x20001E8C) - Data: 00 00 00 00  returns 0x00 (0000ms, 0465ms total)
T2410 020:257 JLINK_ReadMem (0x20001E90, 0x0004 Bytes, ...) -- Read from C cache (4 bytes @ 0x20001E90) - Data: 00 00 00 00  returns 0x00 (0001ms, 0466ms total)
T2410 020:258 JLINK_ReadMem (0x20001E94, 0x0004 Bytes, ...) -- Read from C cache (4 bytes @ 0x20001E94) - Data: 00 00 00 00  returns 0x00 (0000ms, 0466ms total)
T2410 020:258 JLINK_ReadMem (0x20001E98, 0x0001 Bytes, ...) -- Read from C cache (1 bytes @ 0x20001E98) - Data: 00  returns 0x00 (0000ms, 0466ms total)
T2410 020:262 JLINK_ReadMem (0x08000456, 0x0002 Bytes, ...) -- CPU_ReadMem(64 bytes @ 0x08000440) -- Updating C cache (64 bytes @ 0x08000440) -- Read from C cache (2 bytes @ 0x08000456) - Data: 4E 49  returns 0x00 (0001ms, 0467ms total)
T2410 020:263 JLINK_ReadMem (0x08000458, 0x003C Bytes, ...) -- CPU_ReadMem(64 bytes @ 0x08000480) -- Updating C cache (64 bytes @ 0x08000480) -- Read from C cache (60 bytes @ 0x08000458) - Data: 63 A8 09 F0 40 FD 4D 48 63 A9 0E C9 0E C0 46 48 ...  returns 0x00 (0002ms, 0469ms total)
T2CB4 022:139 JLINK_Step() -- Read from C cache (2 bytes @ 0x08000466) -- CPU_ReadMem(64 bytes @ 0x08000580) -- Updating C cache (64 bytes @ 0x08000580) -- Read from C cache (4 bytes @ 0x08000580) -- Simulated  returns 0x00 (0002ms, 0471ms total)
T2CB4 022:141 JLINK_ReadReg(R15 (PC))  returns 0x08000468 (0000ms, 0471ms total)
T2CB4 022:141 JLINK_ReadReg(XPSR)  returns 0x81000000 (0000ms, 0471ms total)
T2CB4 022:141 JLINK_SetBPEx(Addr = 0x08000466, Type = 0xFFFFFFF2)  returns 0x00000006 (0000ms, 0471ms total)
T2CB4 022:141 JLINK_Go() -- CPU_WriteMem(4 bytes @ 0xE0002000) -- CPU_ReadMem(4 bytes @ 0xE0001000) -- CPU_WriteMem(4 bytes @ 0xE0001004) (0003ms, 0474ms total)
T2CB4 022:244 JLINK_IsHalted()  returns TRUE (0003ms, 0477ms total)
T2CB4 022:247 JLINK_Halt()  returns 0x00 (0000ms, 0474ms total)
T2CB4 022:247 JLINK_IsHalted()  returns TRUE (0000ms, 0474ms total)
T2CB4 022:247 JLINK_IsHalted()  returns TRUE (0001ms, 0475ms total)
T2CB4 022:248 JLINK_IsHalted()  returns TRUE (0000ms, 0474ms total)
T2CB4 022:248 JLINK_ReadReg(R15 (PC))  returns 0x08000466 (0000ms, 0474ms total)
T2CB4 022:248 JLINK_ReadReg(XPSR)  returns 0x81000000 (0000ms, 0474ms total)
T2CB4 022:248 JLINK_ClrBPEx(BPHandle = 0x00000006)  returns 0x00 (0000ms, 0474ms total)
T2CB4 022:248 JLINK_ReadMemU32(0xE000ED30, 0x0001 Items, ...) -- CPU_ReadMem(4 bytes @ 0xE000ED30) - Data: 03 00 00 00  returns 0x01 (0001ms, 0475ms total)
T2CB4 022:249 JLINK_ReadMemU32(0xE0001028, 0x0001 Items, ...) -- CPU_ReadMem(4 bytes @ 0xE0001028) - Data: 00 00 00 00  returns 0x01 (0000ms, 0475ms total)
T2CB4 022:249 JLINK_ReadMemU32(0xE0001038, 0x0001 Items, ...) -- CPU_ReadMem(4 bytes @ 0xE0001038) - Data: 00 02 00 00  returns 0x01 (0001ms, 0476ms total)
T2CB4 022:250 JLINK_ReadMemU32(0xE0001048, 0x0001 Items, ...) -- CPU_ReadMem(4 bytes @ 0xE0001048) - Data: 00 00 00 00  returns 0x01 (0000ms, 0476ms total)
T2CB4 022:250 JLINK_ReadMemU32(0xE0001058, 0x0001 Items, ...) -- CPU_ReadMem(4 bytes @ 0xE0001058) - Data: 00 00 00 00  returns 0x01 (0001ms, 0477ms total)
T2CB4 022:251 JLINK_ReadReg(R0)  returns 0x20001E8C (0000ms, 0477ms total)
T2CB4 022:251 JLINK_ReadReg(R1)  returns 0x00000000 (0000ms, 0477ms total)
T2CB4 022:251 JLINK_ReadReg(R2)  returns 0x00000000 (0000ms, 0477ms total)
T2CB4 022:251 JLINK_ReadReg(R3)  returns 0xD8F0E0C0 (0000ms, 0477ms total)
T2CB4 022:251 JLINK_ReadReg(R4)  returns 0x00000000 (0000ms, 0477ms total)
T2CB4 022:251 JLINK_ReadReg(R5)  returns 0x0800E45C (0000ms, 0477ms total)
T2CB4 022:251 JLINK_ReadReg(R6)  returns 0x00000000 (0000ms, 0477ms total)
T2CB4 022:251 JLINK_ReadReg(R7)  returns 0x00000000 (0000ms, 0477ms total)
T2CB4 022:251 JLINK_ReadReg(R8)  returns 0x00000000 (0000ms, 0477ms total)
T2CB4 022:251 JLINK_ReadReg(R9)  returns 0x00000000 (0000ms, 0477ms total)
T2CB4 022:251 JLINK_ReadReg(R10)  returns 0x00000000 (0000ms, 0477ms total)
T2CB4 022:251 JLINK_ReadReg(R11)  returns 0x00000000 (0000ms, 0477ms total)
T2CB4 022:251 JLINK_ReadReg(R12)  returns 0x00000150 (0000ms, 0477ms total)
T2CB4 022:251 JLINK_ReadReg(R13 (SP))  returns 0x200065F8 (0000ms, 0477ms total)
T2CB4 022:251 JLINK_ReadReg(R14)  returns 0x08009EF9 (0000ms, 0477ms total)
T2CB4 022:251 JLINK_ReadReg(R15 (PC))  returns 0x08000466 (0000ms, 0477ms total)
